T0CF8 000:003.371   SEGGER J-Link V6.70e Log File
T0CF8 000:003.449   DLL Compiled: Apr 17 2020 17:55:05
T0CF8 000:003.453   Logging started @ 2024-05-22 15:58
T0CF8 000:003.457 JLINK_SetWarnOutHandler(...)
T0CF8 000:003.462 - 0.006ms
T0CF8 000:003.469 JLINK_OpenEx(...)
T0CF8 000:005.115   Firmware: J-Link V9 compiled May  7 2021 16:26:12
T0CF8 000:005.242   Decompressing FW timestamp took 103 us
T0CF8 000:013.488   Hardware: V9.60
T0CF8 000:013.509   S/N: 69619386
T0CF8 000:013.514   OEM: SEGGER
T0CF8 000:013.518   Feature(s): RDI, GDB, FlashDL, FlashBP, JFlash
T0CF8 000:015.338   TELNET listener socket opened on port 19021
T0CF8 000:015.405   WEBSRV Starting webserver
T0CF8 000:015.520   WEBSRV Webserver running on local port 19080
T0CF8 000:015.525 - 12.058ms returns "O.K."
T0CF8 000:015.539 JLINK_GetEmuCaps()
T0CF8 000:015.542 - 0.005ms returns 0xB9FF7BBF
T0CF8 000:015.547 JLINK_TIF_GetAvailable(...)
T0CF8 000:015.855 - 0.313ms
T0CF8 000:015.866 JLINK_SetErrorOutHandler(...)
T0CF8 000:015.869 - 0.004ms
T0CF8 000:015.882 JLINK_ExecCommand("ProjectFile = "F:\Personal_Project_V1.0\personal_project\STM32\STM32F407\FreeRTOS_V1.0\FreeRTOS\MDK-ARM\JLinkSettings.ini"", ...). 
T0CF8 000:021.397 - 5.525ms returns 0x00
T0CF8 000:023.065 JLINK_ExecCommand("Device = STM32F407ZGTx", ...). 
T0CF8 000:024.869   Device "STM32F407ZG" selected.
T0CF8 000:025.042 - 1.964ms returns 0x00
T0CF8 000:025.050 JLINK_ExecCommand("DisableConnectionTimeout", ...). 
T0CF8 000:025.058 - 0.004ms returns 0x01
T0CF8 000:025.063 JLINK_GetHardwareVersion()
T0CF8 000:025.066 - 0.004ms returns 0x17700
T0CF8 000:025.070 JLINK_GetDLLVersion()  returns 67005
T0CF8 000:025.077 JLINK_GetFirmwareString(...)
T0CF8 000:025.081 - 0.005ms
T0CF8 000:029.343 JLINK_GetDLLVersion()  returns 67005
T0CF8 000:029.352 JLINK_GetCompileDateTime()
T0CF8 000:029.355 - 0.004ms
T0CF8 000:030.880 JLINK_GetFirmwareString(...)
T0CF8 000:030.889 - 0.010ms
T0CF8 000:032.192 JLINK_GetHardwareVersion()
T0CF8 000:032.199 - 0.008ms returns 0x17700
T0CF8 000:037.613 JLINK_TIF_Select(JLINKARM_TIF_JTAG)
T0CF8 000:039.492 - 1.885ms returns 0x00
T0CF8 000:039.513 JLINK_SetSpeed(5000)
T0CF8 000:039.752 - 0.241ms
T0CF8 000:039.757 JLINK_GetIdData(pIdData)
T0CF8 000:043.372   TotalIRLen = 9, IRPrint = 0x0011
T0CF8 000:045.551   JTAG chain detection found 2 devices:
T0CF8 000:046.941    #0 Id: 0x4BA00477, IRLen: 04, CoreSight JTAG-DP
T0CF8 000:048.318    #1 Id: 0x06413041, IRLen: 05, STM32 Boundary Scan
T0CF8 000:059.766   TotalIRLen = 9, IRPrint = 0x0011
T0CF8 000:061.970   JTAG chain detection found 2 devices:
T0CF8 000:063.460    #0 Id: 0x4BA00477, IRLen: 04, CoreSight JTAG-DP
T0CF8 000:064.819    #1 Id: 0x06413041, IRLen: 05, STM32 Boundary Scan
T0CF8 000:068.350   Cannot determine DP version. Assuming DPv0
T0CF8 000:069.694   Scanning AP map to find all available APs
T0CF8 000:071.998   AP[1]: Stopped AP scan as end of AP map has been reached
T0CF8 000:073.469   AP[0]: AHB-AP (IDR: 0x24770011)
T0CF8 000:074.808   Iterating through AP map to find AHB-AP to use
T0CF8 000:077.293   AP[0]: Core found
T0CF8 000:079.101   AP[0]: AHB-AP ROM base: 0xE00FF000
T0CF8 000:081.522   CPUID register: 0x410FC241. Implementer code: 0x41 (ARM)
T0CF8 000:082.942   Found Cortex-M4 r0p1, Little endian.
T0CF8 000:083.639    -- Max. mem block: 0x00010C40
T0CF8 000:083.655   CPU_ReadMem(4 bytes @ 0xE000EDF0)
T0CF8 000:085.071   CPU_WriteMem(4 bytes @ 0xE000EDF0)
T0CF8 000:085.477   CPU_ReadMem(4 bytes @ 0xE0002000)
T0CF8 000:087.627   FPUnit: 6 code (BP) slots and 2 literal slots
T0CF8 000:087.638   CPU_ReadMem(4 bytes @ 0xE000EDFC)
T0CF8 000:088.152   CPU_WriteMem(4 bytes @ 0xE000EDFC)
T0CF8 000:088.580   CPU_ReadMem(4 bytes @ 0xE0001000)
T0CF8 000:089.071   CPU_WriteMem(4 bytes @ 0xE0001000)
T0CF8 000:089.477   CPU_ReadMem(4 bytes @ 0xE000ED88)
T0CF8 000:089.946   CPU_WriteMem(4 bytes @ 0xE000ED88)
T0CF8 000:090.375   CPU_ReadMem(4 bytes @ 0xE000ED88)
T0CF8 000:090.899   CPU_WriteMem(4 bytes @ 0xE000ED88)
T0CF8 000:092.792   CoreSight components:
T0CF8 000:094.545   ROMTbl[0] @ E00FF000
T0CF8 000:094.558   CPU_ReadMem(64 bytes @ 0xE00FF000)
T0CF8 000:095.282   CPU_ReadMem(32 bytes @ 0xE000EFE0)
T0CF8 000:097.324   ROMTbl[0][0]: E000E000, CID: B105E00D, PID: 000BB00C SCS-M7
T0CF8 000:097.334   CPU_ReadMem(32 bytes @ 0xE0001FE0)
T0CF8 000:099.262   ROMTbl[0][1]: E0001000, CID: B105E00D, PID: 003BB002 DWT
T0CF8 000:099.272   CPU_ReadMem(32 bytes @ 0xE0002FE0)
T0CF8 000:101.599   ROMTbl[0][2]: E0002000, CID: B105E00D, PID: 002BB003 FPB
T0CF8 000:101.609   CPU_ReadMem(32 bytes @ 0xE0000FE0)
T0CF8 000:103.860   ROMTbl[0][3]: E0000000, CID: B105E00D, PID: 003BB001 ITM
T0CF8 000:103.871   CPU_ReadMem(32 bytes @ 0xE0040FE0)
T0CF8 000:105.911   ROMTbl[0][4]: E0040000, CID: B105900D, PID: 000BB9A1 TPIU
T0CF8 000:105.922   CPU_ReadMem(32 bytes @ 0xE0041FE0)
T0CF8 000:107.989   ROMTbl[0][5]: E0041000, CID: B105900D, PID: 000BB925 ETM
T0CF8 000:108.024   pIdData->ScanLen=9
T0CF8 000:108.028   
T0CF8 000:108.031   pIdData->NumDevices=2
T0CF8 000:108.035   
T0CF8 000:108.038   pIdData->aId[0]=0x4BA00477
T0CF8 000:108.043   
T0CF8 000:108.045   pIdData->aIrRead[0]=0
T0CF8 000:108.049   
T0CF8 000:108.052   pIdData->aScanLen[0]=0
T0CF8 000:108.056   
T0CF8 000:108.059   pIdData->aScanRead[0]=0
T0CF8 000:108.064   
T0CF8 000:108.066 - 68.310ms
T0CF8 000:108.078 JLINK_JTAG_GetDeviceID(DeviceIndex = 0)
T0CF8 000:108.082 - 0.005ms returns 0x4BA00477
T0CF8 000:108.086 JLINK_JTAG_GetDeviceInfo(DeviceIndex = 0)
T0CF8 000:108.089 - 0.004ms returns 0x00
T0CF8 000:108.109 JLINK_JTAG_GetDeviceID(DeviceIndex = 1)
T0CF8 000:108.112 - 0.004ms returns 0x6413041
T0CF8 000:108.117 JLINK_JTAG_GetDeviceInfo(DeviceIndex = 1)
T0CF8 000:108.120 - 0.005ms returns 0x00
T0CF8 000:108.125 JLINK_GetDLLVersion()  returns 67005
T0CF8 000:108.129 JLINK_CORE_GetFound()
T0CF8 000:108.132 - 0.004ms returns 0xE0000FF
T0CF8 000:108.136 JLINK_GetDebugInfo(0x100 = JLINKARM_ROM_TABLE_ADDR_INDEX)
T0CF8 000:108.141   Value=0xE00FF000
T0CF8 000:108.145 - 0.010ms returns 0x00
T0CF8 000:109.917 JLINK_GetDebugInfo(0x100 = JLINKARM_ROM_TABLE_ADDR_INDEX)
T0CF8 000:109.926   Value=0xE00FF000
T0CF8 000:109.930 - 0.015ms returns 0x00
T0CF8 000:109.935 JLINK_GetDebugInfo(0x101 = JLINKARM_DEBUG_INFO_ETM_ADDR_INDEX)
T0CF8 000:109.938   Value=0xE0041000
T0CF8 000:109.942 - 0.008ms returns 0x00
T0CF8 000:109.947   JLINK_ReadMemEx(0xE0041FD0, 0x0020 Bytes, ..., Flags = 0x02000004)
T0CF8 000:109.971   CPU_ReadMem(32 bytes @ 0xE0041FD0)
T0CF8 000:110.580   Data:  04 00 00 00 00 00 00 00 00 00 00 00 00 00 00 00 ...
T0CF8 000:110.585 - 0.639ms returns 0x20
T0CF8 000:110.590 JLINK_GetDebugInfo(0x102 = JLINKARM_DEBUG_INFO_MTB_ADDR_INDEX)
T0CF8 000:110.593   Value=0x00000000
T0CF8 000:110.597 - 0.009ms returns 0x00
T0CF8 000:110.601 JLINK_GetDebugInfo(0x103 = JLINKARM_DEBUG_INFO_TPIU_ADDR_INDEX)
T0CF8 000:110.604   Value=0xE0040000
T0CF8 000:110.608 - 0.008ms returns 0x00
T0CF8 000:110.612 JLINK_GetDebugInfo(0x104 = JLINKARM_DEBUG_INFO_ITM_ADDR_INDEX)
T0CF8 000:110.615   Value=0xE0000000
T0CF8 000:110.620 - 0.008ms returns 0x00
T0CF8 000:110.623 JLINK_GetDebugInfo(0x105 = JLINKARM_DEBUG_INFO_DWT_ADDR_INDEX)
T0CF8 000:110.626   Value=0xE0001000
T0CF8 000:110.631 - 0.008ms returns 0x00
T0CF8 000:110.634 JLINK_GetDebugInfo(0x106 = JLINKARM_DEBUG_INFO_FPB_ADDR_INDEX)
T0CF8 000:110.637   Value=0xE0002000
T0CF8 000:110.641 - 0.008ms returns 0x00
T0CF8 000:110.645 JLINK_GetDebugInfo(0x107 = JLINKARM_DEBUG_INFO_NVIC_ADDR_INDEX)
T0CF8 000:110.648   Value=0xE000E000
T0CF8 000:110.652 - 0.008ms returns 0x00
T0CF8 000:110.656 JLINK_GetDebugInfo(0x10C = JLINKARM_DEBUG_INFO_DBG_ADDR_INDEX)
T0CF8 000:110.659   Value=0xE000EDF0
T0CF8 000:110.663 - 0.008ms returns 0x00
T0CF8 000:110.667 JLINK_GetDebugInfo(0x01 = Unknown)
T0CF8 000:110.673   Value=0x00000001
T0CF8 000:110.677 - 0.011ms returns 0x00
T0CF8 000:110.684 JLINK_ReadMemU32(0xE000ED00, 0x0001 Items, ...)
T0CF8 000:110.689   CPU_ReadMem(4 bytes @ 0xE000ED00)
T0CF8 000:111.152   Data:  41 C2 0F 41
T0CF8 000:111.160    - CPUID
T0CF8 000:111.166 - 0.484ms returns 1
T0CF8 000:111.171 JLINK_GetDebugInfo(0x10F = JLINKARM_DEBUG_INFO_HAS_CORTEX_M_SECURITY_EXT_INDEX)
T0CF8 000:111.175   Value=0x00000000
T0CF8 000:111.179 - 0.008ms returns 0x00
T0CF8 000:111.184 JLINK_SetResetType(JLINKARM_CM3_RESET_TYPE_NORMAL)
T0CF8 000:111.187 - 0.004ms returns JLINKARM_CM3_RESET_TYPE_NORMAL
T0CF8 000:111.191 JLINK_Reset()
T0CF8 000:111.206   CPU is running
T0CF8 000:111.211   CPU_WriteMem(4 bytes @ 0xE000EDF0)
T0CF8 000:111.604   CPU is running
T0CF8 000:111.609   CPU_WriteMem(4 bytes @ 0xE000EDFC)
T0CF8 000:113.440   Reset: Halt core after reset via DEMCR.VC_CORERESET.
T0CF8 000:114.821   Reset: Reset device via AIRCR.SYSRESETREQ.
T0CF8 000:114.830   CPU is running
T0CF8 000:114.836   CPU_WriteMem(4 bytes @ 0xE000ED0C)
T0CF8 000:166.365   CPU_ReadMem(4 bytes @ 0xE000EDF0)
T0CF8 000:167.136   CPU_ReadMem(4 bytes @ 0xE000EDF0)
T0CF8 000:167.671   CPU is running
T0CF8 000:167.689   CPU_WriteMem(4 bytes @ 0xE000EDF0)
T0CF8 000:168.216   CPU is running
T0CF8 000:168.236   CPU_WriteMem(4 bytes @ 0xE000EDFC)
T0CF8 000:173.881   CPU_ReadMem(4 bytes @ 0xE000EDF0)
T0CF8 000:176.827   CPU_WriteMem(4 bytes @ 0xE000EDFC)
T0CF8 000:177.382   CPU_WriteMem(4 bytes @ 0xE0001028)
T0CF8 000:177.922   CPU_WriteMem(4 bytes @ 0xE0001038)
T0CF8 000:178.450   CPU_WriteMem(4 bytes @ 0xE0001048)
T0CF8 000:178.924   CPU_WriteMem(4 bytes @ 0xE0001058)
T0CF8 000:179.409   CPU_WriteMem(4 bytes @ 0xE0002000)
T0CF8 000:179.918   CPU_ReadMem(4 bytes @ 0xE000EDFC)
T0CF8 000:180.486   CPU_ReadMem(4 bytes @ 0xE0001000)
T0CF8 000:181.117 - 69.937ms
T0CF8 000:181.151 JLINK_Halt()
T0CF8 000:181.162 - 0.017ms returns 0x00
T0CF8 000:181.256 JLINK_ReadMemU32(0xE000EDF0, 0x0001 Items, ...)
T0CF8 000:181.295   CPU_ReadMem(4 bytes @ 0xE000EDF0)
T0CF8 000:181.889   Data:  03 00 03 00
T0CF8 000:181.906    - DHCSR
T0CF8 000:181.921 - 0.670ms returns 1
T0CF8 000:181.942 JLINK_WriteU32(0xE000EDF0, 0xA05F0003)
T0CF8 000:181.953    - DHCSR
T0CF8 000:182.003   CPU_WriteMem(4 bytes @ 0xE000EDF0)
T0CF8 000:182.487 - 0.557ms returns 0
T0CF8 000:182.513 JLINK_WriteU32(0xE000EDFC, 0x01000000)
T0CF8 000:182.528    - DEMCR
T0CF8 000:182.557   CPU_WriteMem(4 bytes @ 0xE000EDFC)
T0CF8 000:183.068 - 0.561ms returns 0
T0CF8 000:192.876 JLINK_GetHWStatus(...)
T0CF8 000:193.205 - 0.332ms returns 0x00
T0CF8 000:197.588 JLINK_GetNumBPUnits(Type = 0xFFFFFF00)
T0CF8 000:197.597 - 0.010ms returns 0x06
T0CF8 000:197.601 JLINK_GetNumBPUnits(Type = 0xF0)
T0CF8 000:197.604 - 0.004ms returns 0x2000
T0CF8 000:197.608 JLINK_GetNumWPUnits()
T0CF8 000:197.611 - 0.004ms returns 0x04
T0CF8 000:201.600 JLINK_GetSpeed()
T0CF8 000:201.607 - 0.009ms returns 0x1388
T0CF8 000:204.335 JLINK_ReadMemU32(0xE000E004, 0x0001 Items, ...)
T0CF8 000:204.350   CPU_ReadMem(4 bytes @ 0xE000E004)
T0CF8 000:204.895   Data:  02 00 00 00
T0CF8 000:204.900 - 0.566ms returns 1
T0CF8 000:204.905 JLINK_ReadMemU32(0xE000E004, 0x0001 Items, ...)
T0CF8 000:204.911   CPU_ReadMem(4 bytes @ 0xE000E004)
T0CF8 000:205.403   Data:  02 00 00 00
T0CF8 000:205.411 - 0.507ms returns 1
T0CF8 000:205.417 JLINK_WriteMemEx(0xE0001000, 0x001C Bytes, ..., Flags = 0x02000004)
T0CF8 000:205.421   Data:  01 00 00 00 00 00 00 00 00 00 00 00 00 00 00 00 ...
T0CF8 000:205.602   CPU_WriteMem(28 bytes @ 0xE0001000)
T0CF8 000:206.119 - 0.705ms returns 0x1C
T0CF8 000:206.128 JLINK_Halt()
T0CF8 000:206.132 - 0.004ms returns 0x00
T0CF8 000:206.135 JLINK_IsHalted()
T0CF8 000:206.139 - 0.004ms returns TRUE
T0CF8 000:207.903 JLINK_WriteMem(0x20000000, 0x0180 Bytes, ...)
T0CF8 000:207.909   Data:  00 BE 0A E0 0D 78 2D 06 68 40 08 24 40 00 00 D3 ...
T0CF8 000:208.073   CPU_WriteMem(384 bytes @ 0x20000000)
T0CF8 000:210.895 - 2.995ms returns 0x180
T0CF8 000:210.918 JLINK_WriteReg(R0, 0x08000000)
T0CF8 000:210.923 - 0.006ms returns 0x00
T0CF8 000:210.927 JLINK_WriteReg(R1, 0x007A1200)
T0CF8 000:210.930 - 0.004ms returns 0x00
T0CF8 000:210.934 JLINK_WriteReg(R2, 0x00000001)
T0CF8 000:210.937 - 0.004ms returns 0x00
T0CF8 000:210.941 JLINK_WriteReg(R3, 0x00000000)
T0CF8 000:210.946 - 0.006ms returns 0x00
T0CF8 000:210.949 JLINK_WriteReg(R4, 0x00000000)
T0CF8 000:210.952 - 0.004ms returns 0x00
T0CF8 000:210.956 JLINK_WriteReg(R5, 0x00000000)
T0CF8 000:210.959 - 0.004ms returns 0x00
T0CF8 000:210.963 JLINK_WriteReg(R6, 0x00000000)
T0CF8 000:210.966 - 0.004ms returns 0x00
T0CF8 000:210.970 JLINK_WriteReg(R7, 0x00000000)
T0CF8 000:210.973 - 0.004ms returns 0x00
T0CF8 000:210.976 JLINK_WriteReg(R8, 0x00000000)
T0CF8 000:210.979 - 0.004ms returns 0x00
T0CF8 000:210.983 JLINK_WriteReg(R9, 0x2000017C)
T0CF8 000:210.986 - 0.004ms returns 0x00
T0CF8 000:210.990 JLINK_WriteReg(R10, 0x00000000)
T0CF8 000:210.993 - 0.004ms returns 0x00
T0CF8 000:210.997 JLINK_WriteReg(R11, 0x00000000)
T0CF8 000:211.000 - 0.004ms returns 0x00
T0CF8 000:211.004 JLINK_WriteReg(R12, 0x00000000)
T0CF8 000:211.007 - 0.004ms returns 0x00
T0CF8 000:211.010 JLINK_WriteReg(R13 (SP), 0x20001000)
T0CF8 000:211.014 - 0.005ms returns 0x00
T0CF8 000:211.018 JLINK_WriteReg(R14, 0x20000001)
T0CF8 000:211.021 - 0.004ms returns 0x00
T0CF8 000:211.024 JLINK_WriteReg(R15 (PC), 0x20000054)
T0CF8 000:211.028 - 0.004ms returns 0x00
T0CF8 000:211.031 JLINK_WriteReg(XPSR, 0x01000000)
T0CF8 000:211.035 - 0.004ms returns 0x00
T0CF8 000:211.038 JLINK_WriteReg(MSP, 0x20001000)
T0CF8 000:211.042 - 0.004ms returns 0x00
T0CF8 000:211.045 JLINK_WriteReg(PSP, 0x20001000)
T0CF8 000:211.048 - 0.004ms returns 0x00
T0CF8 000:211.052 JLINK_WriteReg(CFBP, 0x00000000)
T0CF8 000:211.055 - 0.004ms returns 0x00
T0CF8 000:211.059   JLINK_SetBPEx(Addr = 0x20000000, Type = 0xFFFFFFF2)
T0CF8 000:211.066   CPU_ReadMem(2 bytes @ 0x20000000)
T0CF8 000:211.579 - 0.522ms returns 0x00000001
T0CF8 000:211.589 JLINK_Go()
T0CF8 000:211.594   CPU_WriteMem(2 bytes @ 0x20000000)
T0CF8 000:212.041   CPU_ReadMem(4 bytes @ 0xE0001000)
T0CF8 000:212.515   CPU_WriteMem(4 bytes @ 0xE0002008)
T0CF8 000:212.520   CPU_WriteMem(4 bytes @ 0xE000200C)
T0CF8 000:212.524   CPU_WriteMem(4 bytes @ 0xE0002010)
T0CF8 000:212.529   CPU_WriteMem(4 bytes @ 0xE0002014)
T0CF8 000:212.533   CPU_WriteMem(4 bytes @ 0xE0002018)
T0CF8 000:212.537   CPU_WriteMem(4 bytes @ 0xE000201C)
T0CF8 000:213.903   CPU_WriteMem(4 bytes @ 0xE0001004)
T0CF8 000:216.456 - 4.870ms
T0CF8 000:216.463 JLINK_IsHalted()
T0CF8 000:218.544   CPU_ReadMem(2 bytes @ 0x20000000)
T0CF8 000:219.050 - 2.588ms returns TRUE
T0CF8 000:219.056 JLINK_ReadReg(R15 (PC))
T0CF8 000:219.061 - 0.007ms returns 0x20000000
T0CF8 000:219.065 JLINK_ClrBPEx(BPHandle = 0x00000001)
T0CF8 000:219.069 - 0.004ms returns 0x00
T0CF8 000:219.073 JLINK_ReadReg(R0)
T0CF8 000:219.076 - 0.004ms returns 0x00000000
T0CF8 000:219.238 JLINK_WriteReg(R0, 0x08000000)
T0CF8 000:219.243 - 0.006ms returns 0x00
T0CF8 000:219.247 JLINK_WriteReg(R1, 0x00004000)
T0CF8 000:219.250 - 0.004ms returns 0x00
T0CF8 000:219.254 JLINK_WriteReg(R2, 0x000000FF)
T0CF8 000:219.257 - 0.004ms returns 0x00
T0CF8 000:219.261 JLINK_WriteReg(R3, 0x00000000)
T0CF8 000:219.264 - 0.004ms returns 0x00
T0CF8 000:219.268 JLINK_WriteReg(R4, 0x00000000)
T0CF8 000:219.271 - 0.004ms returns 0x00
T0CF8 000:219.274 JLINK_WriteReg(R5, 0x00000000)
T0CF8 000:219.277 - 0.004ms returns 0x00
T0CF8 000:219.281 JLINK_WriteReg(R6, 0x00000000)
T0CF8 000:219.284 - 0.004ms returns 0x00
T0CF8 000:219.288 JLINK_WriteReg(R7, 0x00000000)
T0CF8 000:219.291 - 0.004ms returns 0x00
T0CF8 000:219.294 JLINK_WriteReg(R8, 0x00000000)
T0CF8 000:219.298 - 0.004ms returns 0x00
T0CF8 000:219.301 JLINK_WriteReg(R9, 0x2000017C)
T0CF8 000:219.304 - 0.004ms returns 0x00
T0CF8 000:219.308 JLINK_WriteReg(R10, 0x00000000)
T0CF8 000:219.311 - 0.004ms returns 0x00
T0CF8 000:219.315 JLINK_WriteReg(R11, 0x00000000)
T0CF8 000:219.318 - 0.004ms returns 0x00
T0CF8 000:219.321 JLINK_WriteReg(R12, 0x00000000)
T0CF8 000:219.325 - 0.004ms returns 0x00
T0CF8 000:219.328 JLINK_WriteReg(R13 (SP), 0x20001000)
T0CF8 000:219.332 - 0.004ms returns 0x00
T0CF8 000:219.335 JLINK_WriteReg(R14, 0x20000001)
T0CF8 000:219.339 - 0.004ms returns 0x00
T0CF8 000:219.363 JLINK_WriteReg(R15 (PC), 0x20000020)
T0CF8 000:219.367 - 0.005ms returns 0x00
T0CF8 000:219.371 JLINK_WriteReg(XPSR, 0x01000000)
T0CF8 000:219.374 - 0.004ms returns 0x00
T0CF8 000:219.378 JLINK_WriteReg(MSP, 0x20001000)
T0CF8 000:219.381 - 0.004ms returns 0x00
T0CF8 000:219.385 JLINK_WriteReg(PSP, 0x20001000)
T0CF8 000:219.388 - 0.004ms returns 0x00
T0CF8 000:219.392 JLINK_WriteReg(CFBP, 0x00000000)
T0CF8 000:219.395 - 0.004ms returns 0x00
T0CF8 000:219.399   JLINK_SetBPEx(Addr = 0x20000000, Type = 0xFFFFFFF2)
T0CF8 000:219.404 - 0.006ms returns 0x00000002
T0CF8 000:219.407 JLINK_Go()
T0CF8 000:219.414   CPU_ReadMem(4 bytes @ 0xE0001000)
T0CF8 000:221.913 - 2.508ms
T0CF8 000:221.920 JLINK_IsHalted()
T0CF8 000:223.986   CPU_ReadMem(2 bytes @ 0x20000000)
T0CF8 000:224.427 - 2.509ms returns TRUE
T0CF8 000:224.432 JLINK_ReadReg(R15 (PC))
T0CF8 000:224.435 - 0.005ms returns 0x20000000
T0CF8 000:224.439 JLINK_ClrBPEx(BPHandle = 0x00000002)
T0CF8 000:224.443 - 0.004ms returns 0x00
T0CF8 000:224.446 JLINK_ReadReg(R0)
T0CF8 000:224.450 - 0.004ms returns 0x00000001
T0CF8 000:224.455 JLINK_WriteReg(R0, 0x08000000)
T0CF8 000:224.458 - 0.004ms returns 0x00
T0CF8 000:224.462 JLINK_WriteReg(R1, 0x00004000)
T0CF8 000:224.465 - 0.004ms returns 0x00
T0CF8 000:224.468 JLINK_WriteReg(R2, 0x000000FF)
T0CF8 000:224.471 - 0.004ms returns 0x00
T0CF8 000:224.475 JLINK_WriteReg(R3, 0x00000000)
T0CF8 000:224.478 - 0.004ms returns 0x00
T0CF8 000:224.482 JLINK_WriteReg(R4, 0x00000000)
T0CF8 000:224.485 - 0.004ms returns 0x00
T0CF8 000:224.489 JLINK_WriteReg(R5, 0x00000000)
T0CF8 000:224.492 - 0.004ms returns 0x00
T0CF8 000:224.495 JLINK_WriteReg(R6, 0x00000000)
T0CF8 000:224.498 - 0.004ms returns 0x00
T0CF8 000:224.502 JLINK_WriteReg(R7, 0x00000000)
T0CF8 000:224.505 - 0.004ms returns 0x00
T0CF8 000:224.509 JLINK_WriteReg(R8, 0x00000000)
T0CF8 000:224.512 - 0.004ms returns 0x00
T0CF8 000:224.516 JLINK_WriteReg(R9, 0x2000017C)
T0CF8 000:224.519 - 0.004ms returns 0x00
T0CF8 000:224.522 JLINK_WriteReg(R10, 0x00000000)
T0CF8 000:224.525 - 0.004ms returns 0x00
T0CF8 000:224.529 JLINK_WriteReg(R11, 0x00000000)
T0CF8 000:224.532 - 0.004ms returns 0x00
T0CF8 000:224.536 JLINK_WriteReg(R12, 0x00000000)
T0CF8 000:224.539 - 0.004ms returns 0x00
T0CF8 000:224.543 JLINK_WriteReg(R13 (SP), 0x20001000)
T0CF8 000:224.546 - 0.004ms returns 0x00
T0CF8 000:224.550 JLINK_WriteReg(R14, 0x20000001)
T0CF8 000:224.553 - 0.004ms returns 0x00
T0CF8 000:224.556 JLINK_WriteReg(R15 (PC), 0x200000BC)
T0CF8 000:224.559 - 0.004ms returns 0x00
T0CF8 000:224.563 JLINK_WriteReg(XPSR, 0x01000000)
T0CF8 000:224.566 - 0.004ms returns 0x00
T0CF8 000:224.570 JLINK_WriteReg(MSP, 0x20001000)
T0CF8 000:224.573 - 0.004ms returns 0x00
T0CF8 000:224.577 JLINK_WriteReg(PSP, 0x20001000)
T0CF8 000:224.580 - 0.004ms returns 0x00
T0CF8 000:224.584 JLINK_WriteReg(CFBP, 0x00000000)
T0CF8 000:224.587 - 0.004ms returns 0x00
T0CF8 000:224.591   JLINK_SetBPEx(Addr = 0x20000000, Type = 0xFFFFFFF2)
T0CF8 000:224.595 - 0.006ms returns 0x00000003
T0CF8 000:224.599 JLINK_Go()
T0CF8 000:224.605   CPU_ReadMem(4 bytes @ 0xE0001000)
T0CF8 000:227.207 - 2.612ms
T0CF8 000:227.216 JLINK_IsHalted()
T0CF8 000:227.675 - 0.463ms returns FALSE
T0CF8 000:254.555 JLINK_IsHalted()
T0CF8 000:255.048 - 0.496ms returns FALSE
T0CF8 000:257.550 JLINK_IsHalted()
T0CF8 000:258.051 - 0.507ms returns FALSE
T0CF8 000:261.534 JLINK_IsHalted()
T0CF8 000:262.028 - 0.500ms returns FALSE
T0CF8 000:264.755 JLINK_IsHalted()
T0CF8 000:265.196 - 0.443ms returns FALSE
T0CF8 000:267.745 JLINK_IsHalted()
T0CF8 000:268.181 - 0.441ms returns FALSE
T0CF8 000:271.169 JLINK_IsHalted()
T0CF8 000:271.616 - 0.448ms returns FALSE
T0CF8 000:275.157 JLINK_IsHalted()
T0CF8 000:275.616 - 0.461ms returns FALSE
T0CF8 000:279.603 JLINK_IsHalted()
T0CF8 000:280.049 - 0.451ms returns FALSE
T0CF8 000:282.593 JLINK_IsHalted()
T0CF8 000:283.071 - 0.483ms returns FALSE
T0CF8 000:285.587 JLINK_IsHalted()
T0CF8 000:286.048 - 0.463ms returns FALSE
T0CF8 000:288.040 JLINK_IsHalted()
T0CF8 000:288.553 - 0.514ms returns FALSE
T0CF8 000:293.526 JLINK_IsHalted()
T0CF8 000:293.945 - 0.425ms returns FALSE
T0CF8 000:296.486 JLINK_IsHalted()
T0CF8 000:296.944 - 0.460ms returns FALSE
T0CF8 000:299.524 JLINK_IsHalted()
T0CF8 000:300.049 - 0.527ms returns FALSE
T0CF8 000:302.488 JLINK_IsHalted()
T0CF8 000:302.899 - 0.417ms returns FALSE
T0CF8 000:305.520 JLINK_IsHalted()
T0CF8 000:305.943 - 0.426ms returns FALSE
T0CF8 000:309.584 JLINK_IsHalted()
T0CF8 000:310.103 - 0.524ms returns FALSE
T0CF8 000:313.569 JLINK_IsHalted()
T0CF8 000:314.029 - 0.463ms returns FALSE
T0CF8 000:316.561 JLINK_IsHalted()
T0CF8 000:317.039 - 0.482ms returns FALSE
T0CF8 000:319.031 JLINK_IsHalted()
T0CF8 000:319.504 - 0.474ms returns FALSE
T0CF8 000:325.010 JLINK_IsHalted()
T0CF8 000:325.444 - 0.435ms returns FALSE
T0CF8 000:328.997 JLINK_IsHalted()
T0CF8 000:329.456 - 0.460ms returns FALSE
T0CF8 000:332.997 JLINK_IsHalted()
T0CF8 000:333.429 - 0.437ms returns FALSE
T0CF8 000:336.878 JLINK_IsHalted()
T0CF8 000:337.321 - 0.449ms returns FALSE
T0CF8 000:339.985 JLINK_IsHalted()
T0CF8 000:340.467 - 0.483ms returns FALSE
T0CF8 000:343.974 JLINK_IsHalted()
T0CF8 000:344.383 - 0.411ms returns FALSE
T0CF8 000:346.963 JLINK_IsHalted()
T0CF8 000:347.399 - 0.437ms returns FALSE
T0CF8 000:349.952 JLINK_IsHalted()
T0CF8 000:350.385 - 0.435ms returns FALSE
T0CF8 000:353.377 JLINK_IsHalted()
T0CF8 000:353.900 - 0.525ms returns FALSE
T0CF8 000:355.841 JLINK_IsHalted()
T0CF8 000:356.321 - 0.485ms returns FALSE
T0CF8 000:358.141 JLINK_IsHalted()
T0CF8 000:358.602 - 0.463ms returns FALSE
T0CF8 000:360.594 JLINK_IsHalted()
T0CF8 000:361.100 - 0.507ms returns FALSE
T0CF8 000:363.586 JLINK_IsHalted()
T0CF8 000:364.045 - 0.461ms returns FALSE
T0CF8 000:366.040 JLINK_IsHalted()
T0CF8 000:366.523 - 0.485ms returns FALSE
T0CF8 000:369.265 JLINK_IsHalted()
T0CF8 000:369.705 - 0.442ms returns FALSE
T0CF8 000:371.702 JLINK_IsHalted()
T0CF8 000:372.172 - 0.475ms returns FALSE
T0CF8 000:374.688 JLINK_IsHalted()
T0CF8 000:375.149 - 0.463ms returns FALSE
T0CF8 000:376.735 JLINK_IsHalted()
T0CF8 000:377.195 - 0.463ms returns FALSE
T0CF8 000:380.418 JLINK_IsHalted()
T0CF8 000:380.851 - 0.435ms returns FALSE
T0CF8 000:383.357 JLINK_IsHalted()
T0CF8 000:383.894 - 0.542ms returns FALSE
T0CF8 000:386.348 JLINK_IsHalted()
T0CF8 000:386.865 - 0.518ms returns FALSE
T0CF8 000:389.339 JLINK_IsHalted()
T0CF8 000:389.759 - 0.421ms returns FALSE
T0CF8 000:394.327 JLINK_IsHalted()
T0CF8 000:394.729 - 0.407ms returns FALSE
T0CF8 000:399.308 JLINK_IsHalted()
T0CF8 000:399.740 - 0.434ms returns FALSE
T0CF8 000:405.290 JLINK_IsHalted()
T0CF8 000:405.740 - 0.455ms returns FALSE
T0CF8 000:410.271 JLINK_IsHalted()
T0CF8 000:410.706 - 0.437ms returns FALSE
T0CF8 000:414.258 JLINK_IsHalted()
T0CF8 000:414.717 - 0.460ms returns FALSE
T0CF8 000:420.419 JLINK_IsHalted()
T0CF8 000:420.893 - 0.480ms returns FALSE
T0CF8 000:423.475 JLINK_IsHalted()
T0CF8 000:423.912 - 0.440ms returns FALSE
T0CF8 000:427.464 JLINK_IsHalted()
T0CF8 000:427.946 - 0.484ms returns FALSE
T0CF8 000:430.452 JLINK_IsHalted()
T0CF8 000:430.877 - 0.428ms returns FALSE
T0CF8 000:433.442 JLINK_IsHalted()
T0CF8 000:433.896 - 0.456ms returns FALSE
T0CF8 000:436.457 JLINK_IsHalted()
T0CF8 000:436.899 - 0.444ms returns FALSE
T0CF8 000:438.423 JLINK_IsHalted()
T0CF8 000:438.851 - 0.430ms returns FALSE
T0CF8 000:440.424 JLINK_IsHalted()
T0CF8 000:440.850 - 0.428ms returns FALSE
T0CF8 000:443.476 JLINK_IsHalted()
T0CF8 000:443.899 - 0.425ms returns FALSE
T0CF8 000:446.109 JLINK_IsHalted()
T0CF8 000:446.569 - 0.462ms returns FALSE
T0CF8 000:448.427 JLINK_IsHalted()
T0CF8 000:448.852 - 0.427ms returns FALSE
T0CF8 000:450.871 JLINK_IsHalted()
T0CF8 000:451.364 - 0.498ms returns FALSE
T0CF8 000:453.845 JLINK_IsHalted()
T0CF8 000:454.332 - 0.489ms returns FALSE
T0CF8 000:456.324 JLINK_IsHalted()
T0CF8 000:456.759 - 0.437ms returns FALSE
T0CF8 000:459.313 JLINK_IsHalted()
T0CF8 000:459.780 - 0.468ms returns FALSE
T0CF8 000:462.433 JLINK_IsHalted()
T0CF8 000:462.894 - 0.466ms returns FALSE
T0CF8 000:464.833 JLINK_IsHalted()
T0CF8 000:465.330 - 0.499ms returns FALSE
T0CF8 000:469.817 JLINK_IsHalted()
T0CF8 000:470.251 - 0.437ms returns FALSE
T0CF8 000:472.807 JLINK_IsHalted()
T0CF8 000:473.297 - 0.492ms returns FALSE
T0CF8 000:476.478 JLINK_IsHalted()
T0CF8 000:476.904 - 0.429ms returns FALSE
T0CF8 000:478.859 JLINK_IsHalted()
T0CF8 000:479.306 - 0.452ms returns FALSE
T0CF8 000:488.310 JLINK_IsHalted()
T0CF8 000:488.727 - 0.419ms returns FALSE
T0CF8 000:492.297 JLINK_IsHalted()
T0CF8 000:492.727 - 0.431ms returns FALSE
T0CF8 000:498.465 JLINK_IsHalted()
T0CF8 000:498.959 - 0.499ms returns FALSE
T0CF8 000:501.415 JLINK_IsHalted()
T0CF8 000:501.905 - 0.494ms returns FALSE
T0CF8 000:504.406 JLINK_IsHalted()
T0CF8 000:504.896 - 0.493ms returns FALSE
T0CF8 000:506.838 JLINK_IsHalted()
T0CF8 000:507.334 - 0.501ms returns FALSE
T0CF8 000:511.820 JLINK_IsHalted()
T0CF8 000:512.228 - 0.413ms returns FALSE
T0CF8 000:514.809 JLINK_IsHalted()
T0CF8 000:515.298 - 0.492ms returns FALSE
T0CF8 000:518.286 JLINK_IsHalted()
T0CF8 000:518.756 - 0.472ms returns FALSE
T0CF8 000:522.746 JLINK_IsHalted()
T0CF8 000:523.227 - 0.485ms returns FALSE
T0CF8 000:525.810 JLINK_IsHalted()
T0CF8 000:526.308 - 0.500ms returns FALSE
T0CF8 000:531.790 JLINK_IsHalted()
T0CF8 000:532.243 - 0.458ms returns FALSE
T0CF8 000:534.452 JLINK_IsHalted()
T0CF8 000:534.896 - 0.445ms returns FALSE
T0CF8 000:537.385 JLINK_IsHalted()
T0CF8 000:537.894 - 0.514ms returns FALSE
T0CF8 000:539.850 JLINK_IsHalted()
T0CF8 000:540.339 - 0.493ms returns FALSE
T0CF8 000:543.821 JLINK_IsHalted()
T0CF8 000:544.304 - 0.486ms returns FALSE
T0CF8 000:546.811 JLINK_IsHalted()
T0CF8 000:547.274 - 0.464ms returns FALSE
T0CF8 000:549.268 JLINK_IsHalted()
T0CF8 000:549.705 - 0.438ms returns FALSE
T0CF8 000:552.694 JLINK_IsHalted()
T0CF8 000:553.149 - 0.457ms returns FALSE
T0CF8 000:555.692 JLINK_IsHalted()
T0CF8 000:556.182 - 0.495ms returns FALSE
T0CF8 000:559.332 JLINK_IsHalted()
T0CF8 000:559.780 - 0.449ms returns FALSE
T0CF8 000:562.326 JLINK_IsHalted()
T0CF8 000:562.904 - 0.583ms returns FALSE
T0CF8 000:565.312 JLINK_IsHalted()
T0CF8 000:565.760 - 0.449ms returns FALSE
T0CF8 000:568.305 JLINK_IsHalted()
T0CF8 000:568.727 - 0.423ms returns FALSE
T0CF8 000:572.916 JLINK_IsHalted()
T0CF8 000:573.378 - 0.468ms returns FALSE
T0CF8 000:576.374 JLINK_IsHalted()
T0CF8 000:576.869 - 0.500ms returns FALSE
T0CF8 000:579.356 JLINK_IsHalted()
T0CF8 000:579.861 - 0.507ms returns FALSE
T0CF8 000:581.861 JLINK_IsHalted()
T0CF8 000:582.295 - 0.438ms returns FALSE
T0CF8 000:584.899 JLINK_IsHalted()
T0CF8 000:585.364 - 0.469ms returns FALSE
T0CF8 000:588.885 JLINK_IsHalted()
T0CF8 000:589.354 - 0.471ms returns FALSE
T0CF8 000:592.384 JLINK_IsHalted()
T0CF8 000:592.862 - 0.480ms returns FALSE
T0CF8 000:595.333 JLINK_IsHalted()
T0CF8 000:595.903 - 0.575ms returns FALSE
T0CF8 000:598.322 JLINK_IsHalted()
T0CF8 000:598.772 - 0.450ms returns FALSE
T0CF8 000:601.764 JLINK_IsHalted()
T0CF8 000:603.933   CPU_ReadMem(2 bytes @ 0x20000000)
T0CF8 000:604.403 - 2.641ms returns TRUE
T0CF8 000:604.409 JLINK_ReadReg(R15 (PC))
T0CF8 000:604.414 - 0.006ms returns 0x20000000
T0CF8 000:604.418 JLINK_ClrBPEx(BPHandle = 0x00000003)
T0CF8 000:604.421 - 0.004ms returns 0x00
T0CF8 000:604.426 JLINK_ReadReg(R0)
T0CF8 000:604.429 - 0.004ms returns 0x00000000
T0CF8 000:604.683 JLINK_WriteReg(R0, 0x00000001)
T0CF8 000:604.690 - 0.008ms returns 0x00
T0CF8 000:604.694 JLINK_WriteReg(R1, 0x00004000)
T0CF8 000:604.697 - 0.004ms returns 0x00
T0CF8 000:604.701 JLINK_WriteReg(R2, 0x000000FF)
T0CF8 000:604.704 - 0.004ms returns 0x00
T0CF8 000:604.708 JLINK_WriteReg(R3, 0x00000000)
T0CF8 000:604.711 - 0.004ms returns 0x00
T0CF8 000:604.714 JLINK_WriteReg(R4, 0x00000000)
T0CF8 000:604.717 - 0.004ms returns 0x00
T0CF8 000:604.721 JLINK_WriteReg(R5, 0x00000000)
T0CF8 000:604.724 - 0.004ms returns 0x00
T0CF8 000:604.728 JLINK_WriteReg(R6, 0x00000000)
T0CF8 000:604.732 - 0.006ms returns 0x00
T0CF8 000:604.737 JLINK_WriteReg(R7, 0x00000000)
T0CF8 000:604.740 - 0.004ms returns 0x00
T0CF8 000:604.744 JLINK_WriteReg(R8, 0x00000000)
T0CF8 000:604.747 - 0.004ms returns 0x00
T0CF8 000:604.751 JLINK_WriteReg(R9, 0x2000017C)
T0CF8 000:604.754 - 0.004ms returns 0x00
T0CF8 000:604.757 JLINK_WriteReg(R10, 0x00000000)
T0CF8 000:604.760 - 0.004ms returns 0x00
T0CF8 000:604.768 JLINK_WriteReg(R11, 0x00000000)
T0CF8 000:604.771 - 0.004ms returns 0x00
T0CF8 000:604.775 JLINK_WriteReg(R12, 0x00000000)
T0CF8 000:604.778 - 0.004ms returns 0x00
T0CF8 000:604.781 JLINK_WriteReg(R13 (SP), 0x20001000)
T0CF8 000:604.785 - 0.005ms returns 0x00
T0CF8 000:604.789 JLINK_WriteReg(R14, 0x20000001)
T0CF8 000:604.792 - 0.004ms returns 0x00
T0CF8 000:604.796 JLINK_WriteReg(R15 (PC), 0x20000082)
T0CF8 000:604.799 - 0.004ms returns 0x00
T0CF8 000:604.802 JLINK_WriteReg(XPSR, 0x01000000)
T0CF8 000:604.806 - 0.004ms returns 0x00
T0CF8 000:604.809 JLINK_WriteReg(MSP, 0x20001000)
T0CF8 000:604.812 - 0.004ms returns 0x00
T0CF8 000:604.816 JLINK_WriteReg(PSP, 0x20001000)
T0CF8 000:604.819 - 0.004ms returns 0x00
T0CF8 000:604.823 JLINK_WriteReg(CFBP, 0x00000000)
T0CF8 000:604.826 - 0.004ms returns 0x00
T0CF8 000:604.830   JLINK_SetBPEx(Addr = 0x20000000, Type = 0xFFFFFFF2)
T0CF8 000:604.835 - 0.006ms returns 0x00000004
T0CF8 000:604.839 JLINK_Go()
T0CF8 000:604.847   CPU_ReadMem(4 bytes @ 0xE0001000)
T0CF8 000:607.456 - 2.620ms
T0CF8 000:607.464 JLINK_IsHalted()
T0CF8 000:609.500   CPU_ReadMem(2 bytes @ 0x20000000)
T0CF8 000:609.958 - 2.497ms returns TRUE
T0CF8 000:609.965 JLINK_ReadReg(R15 (PC))
T0CF8 000:609.970 - 0.006ms returns 0x20000000
T0CF8 000:609.974 JLINK_ClrBPEx(BPHandle = 0x00000004)
T0CF8 000:609.978 - 0.005ms returns 0x00
T0CF8 000:609.983 JLINK_ReadReg(R0)
T0CF8 000:609.986 - 0.005ms returns 0x00000000
T0CF8 000:670.567 JLINK_WriteMem(0x20000000, 0x0180 Bytes, ...)
T0CF8 000:670.577   Data:  00 BE 0A E0 0D 78 2D 06 68 40 08 24 40 00 00 D3 ...
T0CF8 000:670.593   CPU_WriteMem(384 bytes @ 0x20000000)
T0CF8 000:673.382 - 2.822ms returns 0x180
T0CF8 000:673.417 JLINK_WriteReg(R0, 0x08000000)
T0CF8 000:673.426 - 0.010ms returns 0x00
T0CF8 000:673.431 JLINK_WriteReg(R1, 0x007A1200)
T0CF8 000:673.436 - 0.006ms returns 0x00
T0CF8 000:673.441 JLINK_WriteReg(R2, 0x00000002)
T0CF8 000:673.446 - 0.006ms returns 0x00
T0CF8 000:673.451 JLINK_WriteReg(R3, 0x00000000)
T0CF8 000:673.455 - 0.006ms returns 0x00
T0CF8 000:673.461 JLINK_WriteReg(R4, 0x00000000)
T0CF8 000:673.465 - 0.006ms returns 0x00
T0CF8 000:673.470 JLINK_WriteReg(R5, 0x00000000)
T0CF8 000:673.474 - 0.006ms returns 0x00
T0CF8 000:673.480 JLINK_WriteReg(R6, 0x00000000)
T0CF8 000:673.484 - 0.006ms returns 0x00
T0CF8 000:673.489 JLINK_WriteReg(R7, 0x00000000)
T0CF8 000:673.494 - 0.006ms returns 0x00
T0CF8 000:673.499 JLINK_WriteReg(R8, 0x00000000)
T0CF8 000:673.503 - 0.006ms returns 0x00
T0CF8 000:673.509 JLINK_WriteReg(R9, 0x2000017C)
T0CF8 000:673.513 - 0.006ms returns 0x00
T0CF8 000:673.518 JLINK_WriteReg(R10, 0x00000000)
T0CF8 000:673.523 - 0.006ms returns 0x00
T0CF8 000:673.528 JLINK_WriteReg(R11, 0x00000000)
T0CF8 000:673.532 - 0.006ms returns 0x00
T0CF8 000:673.538 JLINK_WriteReg(R12, 0x00000000)
T0CF8 000:673.542 - 0.006ms returns 0x00
T0CF8 000:673.547 JLINK_WriteReg(R13 (SP), 0x20001000)
T0CF8 000:673.552 - 0.007ms returns 0x00
T0CF8 000:673.558 JLINK_WriteReg(R14, 0x20000001)
T0CF8 000:673.562 - 0.006ms returns 0x00
T0CF8 000:673.567 JLINK_WriteReg(R15 (PC), 0x20000054)
T0CF8 000:673.572 - 0.006ms returns 0x00
T0CF8 000:673.577 JLINK_WriteReg(XPSR, 0x01000000)
T0CF8 000:673.582 - 0.006ms returns 0x00
T0CF8 000:673.587 JLINK_WriteReg(MSP, 0x20001000)
T0CF8 000:673.591 - 0.006ms returns 0x00
T0CF8 000:673.597 JLINK_WriteReg(PSP, 0x20001000)
T0CF8 000:673.601 - 0.006ms returns 0x00
T0CF8 000:673.606 JLINK_WriteReg(CFBP, 0x00000000)
T0CF8 000:673.611 - 0.006ms returns 0x00
T0CF8 000:673.617   JLINK_SetBPEx(Addr = 0x20000000, Type = 0xFFFFFFF2)
T0CF8 000:673.626   CPU_ReadMem(2 bytes @ 0x20000000)
T0CF8 000:674.108 - 0.495ms returns 0x00000005
T0CF8 000:674.116 JLINK_Go()
T0CF8 000:674.123   CPU_WriteMem(2 bytes @ 0x20000000)
T0CF8 000:674.561   CPU_ReadMem(4 bytes @ 0xE0001000)
T0CF8 000:677.230 - 3.120ms
T0CF8 000:677.242 JLINK_IsHalted()
T0CF8 000:679.322   CPU_ReadMem(2 bytes @ 0x20000000)
T0CF8 000:679.901 - 2.669ms returns TRUE
T0CF8 000:679.918 JLINK_ReadReg(R15 (PC))
T0CF8 000:679.927 - 0.011ms returns 0x20000000
T0CF8 000:679.934 JLINK_ClrBPEx(BPHandle = 0x00000005)
T0CF8 000:679.940 - 0.008ms returns 0x00
T0CF8 000:679.947 JLINK_ReadReg(R0)
T0CF8 000:679.952 - 0.008ms returns 0x00000000
T0CF8 000:680.201 JLINK_WriteMem(0x20000180, 0x0280 Bytes, ...)
T0CF8 000:680.209   Data:  08 4E 00 20 5D 02 00 08 97 12 00 08 CD 10 00 08 ...
T0CF8 000:680.225   CPU_WriteMem(640 bytes @ 0x20000180)
T0CF8 000:684.338 - 4.144ms returns 0x280
T0CF8 000:684.353 JLINK_WriteMem(0x20000400, 0x0180 Bytes, ...)
T0CF8 000:684.360   Data:  2D E9 F0 5F 05 46 00 20 92 46 9B 46 88 46 06 46 ...
T0CF8 000:684.377   CPU_WriteMem(384 bytes @ 0x20000400)
T0CF8 000:687.225 - 2.877ms returns 0x180
T0CF8 000:687.241 JLINK_WriteReg(R0, 0x08000000)
T0CF8 000:687.251 - 0.013ms returns 0x00
T0CF8 000:687.260 JLINK_WriteReg(R1, 0x00000400)
T0CF8 000:687.389 - 0.142ms returns 0x00
T0CF8 000:687.409 JLINK_WriteReg(R2, 0x20000180)
T0CF8 000:687.426 - 0.020ms returns 0x00
T0CF8 000:687.436 JLINK_WriteReg(R3, 0x00000000)
T0CF8 000:687.444 - 0.038ms returns 0x00
T0CF8 000:687.481 JLINK_WriteReg(R4, 0x00000000)
T0CF8 000:687.494 - 0.017ms returns 0x00
T0CF8 000:687.505 JLINK_WriteReg(R5, 0x00000000)
T0CF8 000:687.514 - 0.013ms returns 0x00
T0CF8 000:687.525 JLINK_WriteReg(R6, 0x00000000)
T0CF8 000:687.532 - 0.010ms returns 0x00
T0CF8 000:687.541 JLINK_WriteReg(R7, 0x00000000)
T0CF8 000:687.550 - 0.012ms returns 0x00
T0CF8 000:687.558 JLINK_WriteReg(R8, 0x00000000)
T0CF8 000:687.565 - 0.010ms returns 0x00
T0CF8 000:687.573 JLINK_WriteReg(R9, 0x2000017C)
T0CF8 000:687.580 - 0.010ms returns 0x00
T0CF8 000:687.588 JLINK_WriteReg(R10, 0x00000000)
T0CF8 000:687.595 - 0.010ms returns 0x00
T0CF8 000:687.604 JLINK_WriteReg(R11, 0x00000000)
T0CF8 000:687.611 - 0.010ms returns 0x00
T0CF8 000:687.619 JLINK_WriteReg(R12, 0x00000000)
T0CF8 000:687.626 - 0.010ms returns 0x00
T0CF8 000:687.634 JLINK_WriteReg(R13 (SP), 0x20001000)
T0CF8 000:687.642 - 0.011ms returns 0x00
T0CF8 000:687.651 JLINK_WriteReg(R14, 0x20000001)
T0CF8 000:687.657 - 0.010ms returns 0x00
T0CF8 000:687.666 JLINK_WriteReg(R15 (PC), 0x20000108)
T0CF8 000:687.673 - 0.010ms returns 0x00
T0CF8 000:687.681 JLINK_WriteReg(XPSR, 0x01000000)
T0CF8 000:687.688 - 0.010ms returns 0x00
T0CF8 000:687.696 JLINK_WriteReg(MSP, 0x20001000)
T0CF8 000:687.703 - 0.010ms returns 0x00
T0CF8 000:687.711 JLINK_WriteReg(PSP, 0x20001000)
T0CF8 000:687.718 - 0.010ms returns 0x00
T0CF8 000:687.727 JLINK_WriteReg(CFBP, 0x00000000)
T0CF8 000:687.733 - 0.010ms returns 0x00
T0CF8 000:687.743   JLINK_SetBPEx(Addr = 0x20000000, Type = 0xFFFFFFF2)
T0CF8 000:687.754 - 0.015ms returns 0x00000006
T0CF8 000:687.762 JLINK_Go()
T0CF8 000:687.777   CPU_ReadMem(4 bytes @ 0xE0001000)
T0CF8 000:690.501 - 2.758ms
T0CF8 000:690.532 JLINK_IsHalted()
T0CF8 000:691.035 - 0.513ms returns FALSE
T0CF8 000:702.335 JLINK_IsHalted()
T0CF8 000:704.536   CPU_ReadMem(2 bytes @ 0x20000000)
T0CF8 000:705.039 - 2.707ms returns TRUE
T0CF8 000:705.046 JLINK_ReadReg(R15 (PC))
T0CF8 000:705.052 - 0.006ms returns 0x20000000
T0CF8 000:705.056 JLINK_ClrBPEx(BPHandle = 0x00000006)
T0CF8 000:705.059 - 0.005ms returns 0x00
T0CF8 000:705.063 JLINK_ReadReg(R0)
T0CF8 000:705.067 - 0.004ms returns 0x00000000
T0CF8 000:705.356 JLINK_WriteMem(0x20000180, 0x0280 Bytes, ...)
T0CF8 000:705.361   Data:  0B 68 05 FA 02 F4 23 40 A3 42 70 D1 0F 79 07 F0 ...
T0CF8 000:705.371   CPU_WriteMem(640 bytes @ 0x20000180)
T0CF8 000:709.520 - 4.169ms returns 0x280
T0CF8 000:709.529 JLINK_WriteMem(0x20000400, 0x0180 Bytes, ...)
T0CF8 000:709.533   Data:  15 E0 00 F0 3F F9 E9 E7 0D 48 00 F0 7F FB 04 00 ...
T0CF8 000:709.544   CPU_WriteMem(384 bytes @ 0x20000400)
T0CF8 000:712.310 - 2.785ms returns 0x180
T0CF8 000:712.320 JLINK_WriteReg(R0, 0x08000400)
T0CF8 000:712.325 - 0.006ms returns 0x00
T0CF8 000:712.329 JLINK_WriteReg(R1, 0x00000400)
T0CF8 000:712.333 - 0.004ms returns 0x00
T0CF8 000:712.336 JLINK_WriteReg(R2, 0x20000180)
T0CF8 000:712.339 - 0.004ms returns 0x00
T0CF8 000:712.343 JLINK_WriteReg(R3, 0x00000000)
T0CF8 000:712.346 - 0.004ms returns 0x00
T0CF8 000:712.350 JLINK_WriteReg(R4, 0x00000000)
T0CF8 000:712.353 - 0.004ms returns 0x00
T0CF8 000:712.357 JLINK_WriteReg(R5, 0x00000000)
T0CF8 000:712.360 - 0.004ms returns 0x00
T0CF8 000:712.363 JLINK_WriteReg(R6, 0x00000000)
T0CF8 000:712.366 - 0.004ms returns 0x00
T0CF8 000:712.370 JLINK_WriteReg(R7, 0x00000000)
T0CF8 000:712.373 - 0.004ms returns 0x00
T0CF8 000:712.377 JLINK_WriteReg(R8, 0x00000000)
T0CF8 000:712.380 - 0.004ms returns 0x00
T0CF8 000:712.384 JLINK_WriteReg(R9, 0x2000017C)
T0CF8 000:712.387 - 0.004ms returns 0x00
T0CF8 000:712.390 JLINK_WriteReg(R10, 0x00000000)
T0CF8 000:712.393 - 0.004ms returns 0x00
T0CF8 000:712.397 JLINK_WriteReg(R11, 0x00000000)
T0CF8 000:712.400 - 0.004ms returns 0x00
T0CF8 000:712.404 JLINK_WriteReg(R12, 0x00000000)
T0CF8 000:712.407 - 0.004ms returns 0x00
T0CF8 000:712.411 JLINK_WriteReg(R13 (SP), 0x20001000)
T0CF8 000:712.414 - 0.004ms returns 0x00
T0CF8 000:712.418 JLINK_WriteReg(R14, 0x20000001)
T0CF8 000:712.421 - 0.004ms returns 0x00
T0CF8 000:712.424 JLINK_WriteReg(R15 (PC), 0x20000108)
T0CF8 000:712.428 - 0.004ms returns 0x00
T0CF8 000:712.431 JLINK_WriteReg(XPSR, 0x01000000)
T0CF8 000:712.435 - 0.004ms returns 0x00
T0CF8 000:712.438 JLINK_WriteReg(MSP, 0x20001000)
T0CF8 000:712.441 - 0.004ms returns 0x00
T0CF8 000:712.445 JLINK_WriteReg(PSP, 0x20001000)
T0CF8 000:712.448 - 0.004ms returns 0x00
T0CF8 000:712.452 JLINK_WriteReg(CFBP, 0x00000000)
T0CF8 000:712.455 - 0.004ms returns 0x00
T0CF8 000:712.459   JLINK_SetBPEx(Addr = 0x20000000, Type = 0xFFFFFFF2)
T0CF8 000:712.464 - 0.006ms returns 0x00000007
T0CF8 000:712.468 JLINK_Go()
T0CF8 000:712.478   CPU_ReadMem(4 bytes @ 0xE0001000)
T0CF8 000:715.139 - 2.675ms
T0CF8 000:715.147 JLINK_IsHalted()
T0CF8 000:715.604 - 0.459ms returns FALSE
T0CF8 000:719.348 JLINK_IsHalted()
T0CF8 000:721.545   CPU_ReadMem(2 bytes @ 0x20000000)
T0CF8 000:722.048 - 2.701ms returns TRUE
T0CF8 000:722.053 JLINK_ReadReg(R15 (PC))
T0CF8 000:722.057 - 0.005ms returns 0x20000000
T0CF8 000:722.061 JLINK_ClrBPEx(BPHandle = 0x00000007)
T0CF8 000:722.064 - 0.004ms returns 0x00
T0CF8 000:722.068 JLINK_ReadReg(R0)
T0CF8 000:722.071 - 0.004ms returns 0x00000000
T0CF8 000:722.337 JLINK_WriteMem(0x20000180, 0x0280 Bytes, ...)
T0CF8 000:722.343   Data:  21 F0 03 01 01 43 21 60 FF F7 EA FE 81 46 41 F2 ...
T0CF8 000:722.351   CPU_WriteMem(640 bytes @ 0x20000180)
T0CF8 000:726.467 - 4.133ms returns 0x280
T0CF8 000:726.475 JLINK_WriteMem(0x20000400, 0x0180 Bytes, ...)
T0CF8 000:726.478   Data:  11 F0 0C 0F 08 D0 00 68 C0 F3 81 00 02 28 0B D1 ...
T0CF8 000:726.486   CPU_WriteMem(384 bytes @ 0x20000400)
T0CF8 000:729.129 - 2.657ms returns 0x180
T0CF8 000:729.138 JLINK_WriteReg(R0, 0x08000800)
T0CF8 000:729.143 - 0.006ms returns 0x00
T0CF8 000:729.147 JLINK_WriteReg(R1, 0x00000400)
T0CF8 000:729.150 - 0.004ms returns 0x00
T0CF8 000:729.154 JLINK_WriteReg(R2, 0x20000180)
T0CF8 000:729.157 - 0.004ms returns 0x00
T0CF8 000:729.161 JLINK_WriteReg(R3, 0x00000000)
T0CF8 000:729.164 - 0.004ms returns 0x00
T0CF8 000:729.168 JLINK_WriteReg(R4, 0x00000000)
T0CF8 000:729.171 - 0.004ms returns 0x00
T0CF8 000:729.175 JLINK_WriteReg(R5, 0x00000000)
T0CF8 000:729.178 - 0.004ms returns 0x00
T0CF8 000:729.182 JLINK_WriteReg(R6, 0x00000000)
T0CF8 000:729.185 - 0.004ms returns 0x00
T0CF8 000:729.189 JLINK_WriteReg(R7, 0x00000000)
T0CF8 000:729.192 - 0.004ms returns 0x00
T0CF8 000:729.196 JLINK_WriteReg(R8, 0x00000000)
T0CF8 000:729.199 - 0.004ms returns 0x00
T0CF8 000:729.203 JLINK_WriteReg(R9, 0x2000017C)
T0CF8 000:729.207 - 0.006ms returns 0x00
T0CF8 000:729.212 JLINK_WriteReg(R10, 0x00000000)
T0CF8 000:729.215 - 0.004ms returns 0x00
T0CF8 000:729.219 JLINK_WriteReg(R11, 0x00000000)
T0CF8 000:729.223 - 0.004ms returns 0x00
T0CF8 000:729.226 JLINK_WriteReg(R12, 0x00000000)
T0CF8 000:729.230 - 0.004ms returns 0x00
T0CF8 000:729.234 JLINK_WriteReg(R13 (SP), 0x20001000)
T0CF8 000:729.237 - 0.005ms returns 0x00
T0CF8 000:729.241 JLINK_WriteReg(R14, 0x20000001)
T0CF8 000:729.244 - 0.004ms returns 0x00
T0CF8 000:729.248 JLINK_WriteReg(R15 (PC), 0x20000108)
T0CF8 000:729.251 - 0.004ms returns 0x00
T0CF8 000:729.255 JLINK_WriteReg(XPSR, 0x01000000)
T0CF8 000:729.258 - 0.004ms returns 0x00
T0CF8 000:729.262 JLINK_WriteReg(MSP, 0x20001000)
T0CF8 000:729.266 - 0.004ms returns 0x00
T0CF8 000:729.269 JLINK_WriteReg(PSP, 0x20001000)
T0CF8 000:729.273 - 0.004ms returns 0x00
T0CF8 000:729.276 JLINK_WriteReg(CFBP, 0x00000000)
T0CF8 000:729.280 - 0.004ms returns 0x00
T0CF8 000:729.284   JLINK_SetBPEx(Addr = 0x20000000, Type = 0xFFFFFFF2)
T0CF8 000:729.289 - 0.006ms returns 0x00000008
T0CF8 000:729.293 JLINK_Go()
T0CF8 000:729.300   CPU_ReadMem(4 bytes @ 0xE0001000)
T0CF8 000:731.864 - 2.574ms
T0CF8 000:731.872 JLINK_IsHalted()
T0CF8 000:732.320 - 0.449ms returns FALSE
T0CF8 000:736.343 JLINK_IsHalted()
T0CF8 000:738.407   CPU_ReadMem(2 bytes @ 0x20000000)
T0CF8 000:738.900 - 2.559ms returns TRUE
T0CF8 000:738.906 JLINK_ReadReg(R15 (PC))
T0CF8 000:738.910 - 0.005ms returns 0x20000000
T0CF8 000:738.915 JLINK_ClrBPEx(BPHandle = 0x00000008)
T0CF8 000:738.918 - 0.004ms returns 0x00
T0CF8 000:738.922 JLINK_ReadReg(R0)
T0CF8 000:738.925 - 0.004ms returns 0x00000000
T0CF8 000:739.194 JLINK_WriteMem(0x20000180, 0x0280 Bytes, ...)
T0CF8 000:739.199   Data:  41 F2 88 30 81 42 56 D8 30 68 80 07 F4 D4 2F B1 ...
T0CF8 000:739.207   CPU_WriteMem(640 bytes @ 0x20000180)
T0CF8 000:743.312 - 4.122ms returns 0x280
T0CF8 000:743.323 JLINK_WriteMem(0x20000400, 0x0180 Bytes, ...)
T0CF8 000:743.329   Data:  30 07 13 D5 21 68 6F F0 08 00 08 61 04 20 20 77 ...
T0CF8 000:743.337   CPU_WriteMem(384 bytes @ 0x20000400)
T0CF8 000:746.080 - 2.759ms returns 0x180
T0CF8 000:746.088 JLINK_WriteReg(R0, 0x08000C00)
T0CF8 000:746.093 - 0.006ms returns 0x00
T0CF8 000:746.110 JLINK_WriteReg(R1, 0x00000400)
T0CF8 000:746.114 - 0.004ms returns 0x00
T0CF8 000:746.118 JLINK_WriteReg(R2, 0x20000180)
T0CF8 000:746.121 - 0.004ms returns 0x00
T0CF8 000:746.124 JLINK_WriteReg(R3, 0x00000000)
T0CF8 000:746.128 - 0.004ms returns 0x00
T0CF8 000:746.132 JLINK_WriteReg(R4, 0x00000000)
T0CF8 000:746.135 - 0.004ms returns 0x00
T0CF8 000:746.139 JLINK_WriteReg(R5, 0x00000000)
T0CF8 000:746.142 - 0.004ms returns 0x00
T0CF8 000:746.146 JLINK_WriteReg(R6, 0x00000000)
T0CF8 000:746.149 - 0.004ms returns 0x00
T0CF8 000:746.153 JLINK_WriteReg(R7, 0x00000000)
T0CF8 000:746.156 - 0.004ms returns 0x00
T0CF8 000:746.160 JLINK_WriteReg(R8, 0x00000000)
T0CF8 000:746.163 - 0.004ms returns 0x00
T0CF8 000:746.167 JLINK_WriteReg(R9, 0x2000017C)
T0CF8 000:746.171 - 0.004ms returns 0x00
T0CF8 000:746.175 JLINK_WriteReg(R10, 0x00000000)
T0CF8 000:746.178 - 0.004ms returns 0x00
T0CF8 000:746.182 JLINK_WriteReg(R11, 0x00000000)
T0CF8 000:746.185 - 0.004ms returns 0x00
T0CF8 000:746.189 JLINK_WriteReg(R12, 0x00000000)
T0CF8 000:746.192 - 0.004ms returns 0x00
T0CF8 000:746.196 JLINK_WriteReg(R13 (SP), 0x20001000)
T0CF8 000:746.200 - 0.005ms returns 0x00
T0CF8 000:746.204 JLINK_WriteReg(R14, 0x20000001)
T0CF8 000:746.207 - 0.004ms returns 0x00
T0CF8 000:746.211 JLINK_WriteReg(R15 (PC), 0x20000108)
T0CF8 000:746.215 - 0.004ms returns 0x00
T0CF8 000:746.219 JLINK_WriteReg(XPSR, 0x01000000)
T0CF8 000:746.222 - 0.004ms returns 0x00
T0CF8 000:746.226 JLINK_WriteReg(MSP, 0x20001000)
T0CF8 000:746.229 - 0.004ms returns 0x00
T0CF8 000:746.233 JLINK_WriteReg(PSP, 0x20001000)
T0CF8 000:746.236 - 0.004ms returns 0x00
T0CF8 000:746.240 JLINK_WriteReg(CFBP, 0x00000000)
T0CF8 000:746.244 - 0.004ms returns 0x00
T0CF8 000:746.248   JLINK_SetBPEx(Addr = 0x20000000, Type = 0xFFFFFFF2)
T0CF8 000:746.255 - 0.008ms returns 0x00000009
T0CF8 000:746.259 JLINK_Go()
T0CF8 000:746.266   CPU_ReadMem(4 bytes @ 0xE0001000)
T0CF8 000:748.776 - 2.519ms
T0CF8 000:748.782 JLINK_IsHalted()
T0CF8 000:749.227 - 0.447ms returns FALSE
T0CF8 000:752.218 JLINK_IsHalted()
T0CF8 000:752.686 - 0.470ms returns FALSE
T0CF8 000:754.678 JLINK_IsHalted()
T0CF8 000:756.753   CPU_ReadMem(2 bytes @ 0x20000000)
T0CF8 000:757.199 - 2.524ms returns TRUE
T0CF8 000:757.206 JLINK_ReadReg(R15 (PC))
T0CF8 000:757.211 - 0.007ms returns 0x20000000
T0CF8 000:757.217 JLINK_ClrBPEx(BPHandle = 0x00000009)
T0CF8 000:757.221 - 0.006ms returns 0x00
T0CF8 000:757.226 JLINK_ReadReg(R0)
T0CF8 000:757.230 - 0.006ms returns 0x00000000
T0CF8 000:757.573 JLINK_WriteMem(0x20000180, 0x0280 Bytes, ...)
T0CF8 000:757.580   Data:  C0 60 00 90 02 20 CD E9 01 01 03 20 03 90 07 20 ...
T0CF8 000:757.591   CPU_WriteMem(640 bytes @ 0x20000180)
T0CF8 000:761.682 - 4.114ms returns 0x280
T0CF8 000:761.694 JLINK_WriteMem(0x20000400, 0x0180 Bytes, ...)
T0CF8 000:761.699   Data:  03 D0 BD E8 10 40 FF F7 99 B8 10 BD 00 10 01 40 ...
T0CF8 000:761.711   CPU_WriteMem(384 bytes @ 0x20000400)
T0CF8 000:764.539 - 2.847ms returns 0x180
T0CF8 000:764.548 JLINK_WriteReg(R0, 0x08001000)
T0CF8 000:764.555 - 0.008ms returns 0x00
T0CF8 000:764.561 JLINK_WriteReg(R1, 0x00000400)
T0CF8 000:764.565 - 0.007ms returns 0x00
T0CF8 000:764.572 JLINK_WriteReg(R2, 0x20000180)
T0CF8 000:764.577 - 0.008ms returns 0x00
T0CF8 000:764.584 JLINK_WriteReg(R3, 0x00000000)
T0CF8 000:764.589 - 0.008ms returns 0x00
T0CF8 000:764.596 JLINK_WriteReg(R4, 0x00000000)
T0CF8 000:764.602 - 0.008ms returns 0x00
T0CF8 000:764.608 JLINK_WriteReg(R5, 0x00000000)
T0CF8 000:764.614 - 0.008ms returns 0x00
T0CF8 000:764.620 JLINK_WriteReg(R6, 0x00000000)
T0CF8 000:764.626 - 0.008ms returns 0x00
T0CF8 000:764.633 JLINK_WriteReg(R7, 0x00000000)
T0CF8 000:764.638 - 0.008ms returns 0x00
T0CF8 000:764.645 JLINK_WriteReg(R8, 0x00000000)
T0CF8 000:764.650 - 0.008ms returns 0x00
T0CF8 000:764.657 JLINK_WriteReg(R9, 0x2000017C)
T0CF8 000:764.663 - 0.008ms returns 0x00
T0CF8 000:764.669 JLINK_WriteReg(R10, 0x00000000)
T0CF8 000:764.675 - 0.008ms returns 0x00
T0CF8 000:764.682 JLINK_WriteReg(R11, 0x00000000)
T0CF8 000:764.687 - 0.008ms returns 0x00
T0CF8 000:764.694 JLINK_WriteReg(R12, 0x00000000)
T0CF8 000:764.700 - 0.008ms returns 0x00
T0CF8 000:764.706 JLINK_WriteReg(R13 (SP), 0x20001000)
T0CF8 000:764.712 - 0.008ms returns 0x00
T0CF8 000:764.719 JLINK_WriteReg(R14, 0x20000001)
T0CF8 000:764.725 - 0.008ms returns 0x00
T0CF8 000:764.732 JLINK_WriteReg(R15 (PC), 0x20000108)
T0CF8 000:764.737 - 0.008ms returns 0x00
T0CF8 000:764.744 JLINK_WriteReg(XPSR, 0x01000000)
T0CF8 000:764.750 - 0.008ms returns 0x00
T0CF8 000:764.756 JLINK_WriteReg(MSP, 0x20001000)
T0CF8 000:764.762 - 0.008ms returns 0x00
T0CF8 000:764.769 JLINK_WriteReg(PSP, 0x20001000)
T0CF8 000:764.774 - 0.008ms returns 0x00
T0CF8 000:764.781 JLINK_WriteReg(CFBP, 0x00000000)
T0CF8 000:764.786 - 0.008ms returns 0x00
T0CF8 000:764.794   JLINK_SetBPEx(Addr = 0x20000000, Type = 0xFFFFFFF2)
T0CF8 000:764.802 - 0.011ms returns 0x0000000A
T0CF8 000:764.809 JLINK_Go()
T0CF8 000:764.820   CPU_ReadMem(4 bytes @ 0xE0001000)
T0CF8 000:767.420 - 2.617ms
T0CF8 000:767.434 JLINK_IsHalted()
T0CF8 000:767.962 - 0.531ms returns FALSE
T0CF8 000:772.195 JLINK_IsHalted()
T0CF8 000:774.303   CPU_ReadMem(2 bytes @ 0x20000000)
T0CF8 000:774.778 - 2.586ms returns TRUE
T0CF8 000:774.786 JLINK_ReadReg(R15 (PC))
T0CF8 000:774.792 - 0.007ms returns 0x20000000
T0CF8 000:774.797 JLINK_ClrBPEx(BPHandle = 0x0000000A)
T0CF8 000:774.802 - 0.006ms returns 0x00
T0CF8 000:774.807 JLINK_ReadReg(R0)
T0CF8 000:774.812 - 0.006ms returns 0x00000000
T0CF8 000:775.175 JLINK_WriteMem(0x20000180, 0x0280 Bytes, ...)
T0CF8 000:775.183   Data:  01 D1 09 69 01 63 01 21 41 61 01 69 C9 07 03 D0 ...
T0CF8 000:775.194   CPU_WriteMem(640 bytes @ 0x20000180)
T0CF8 000:779.338 - 4.168ms returns 0x280
T0CF8 000:779.350 JLINK_WriteMem(0x20000400, 0x0180 Bytes, ...)
T0CF8 000:779.358   Data:  00 2A FA D1 70 47 70 47 00 20 01 E0 01 C1 12 1F ...
T0CF8 000:779.370   CPU_WriteMem(384 bytes @ 0x20000400)
T0CF8 000:782.145 - 2.798ms returns 0x180
T0CF8 000:782.157 JLINK_WriteReg(R0, 0x08001400)
T0CF8 000:782.165 - 0.011ms returns 0x00
T0CF8 000:782.172 JLINK_WriteReg(R1, 0x00000400)
T0CF8 000:782.178 - 0.008ms returns 0x00
T0CF8 000:782.185 JLINK_WriteReg(R2, 0x20000180)
T0CF8 000:782.191 - 0.008ms returns 0x00
T0CF8 000:782.198 JLINK_WriteReg(R3, 0x00000000)
T0CF8 000:782.204 - 0.008ms returns 0x00
T0CF8 000:782.211 JLINK_WriteReg(R4, 0x00000000)
T0CF8 000:782.216 - 0.008ms returns 0x00
T0CF8 000:782.223 JLINK_WriteReg(R5, 0x00000000)
T0CF8 000:782.229 - 0.008ms returns 0x00
T0CF8 000:782.236 JLINK_WriteReg(R6, 0x00000000)
T0CF8 000:782.242 - 0.008ms returns 0x00
T0CF8 000:782.250 JLINK_WriteReg(R7, 0x00000000)
T0CF8 000:782.258 - 0.011ms returns 0x00
T0CF8 000:782.267 JLINK_WriteReg(R8, 0x00000000)
T0CF8 000:782.274 - 0.010ms returns 0x00
T0CF8 000:782.283 JLINK_WriteReg(R9, 0x2000017C)
T0CF8 000:782.291 - 0.011ms returns 0x00
T0CF8 000:782.327 JLINK_WriteReg(R10, 0x00000000)
T0CF8 000:782.335 - 0.010ms returns 0x00
T0CF8 000:782.344 JLINK_WriteReg(R11, 0x00000000)
T0CF8 000:782.353 - 0.012ms returns 0x00
T0CF8 000:782.361 JLINK_WriteReg(R12, 0x00000000)
T0CF8 000:782.367 - 0.009ms returns 0x00
T0CF8 000:782.375 JLINK_WriteReg(R13 (SP), 0x20001000)
T0CF8 000:782.381 - 0.009ms returns 0x00
T0CF8 000:782.389 JLINK_WriteReg(R14, 0x20000001)
T0CF8 000:782.394 - 0.008ms returns 0x00
T0CF8 000:782.402 JLINK_WriteReg(R15 (PC), 0x20000108)
T0CF8 000:782.408 - 0.009ms returns 0x00
T0CF8 000:782.415 JLINK_WriteReg(XPSR, 0x01000000)
T0CF8 000:782.421 - 0.008ms returns 0x00
T0CF8 000:782.429 JLINK_WriteReg(MSP, 0x20001000)
T0CF8 000:782.435 - 0.008ms returns 0x00
